
T2570 000:322 SEGGER J-Link V5.02f Log File (0000ms, 0266ms total)
T2570 000:322 DLL Compiled: Oct  2 2015 20:51:34 (0000ms, 0266ms total)
T2570 000:322 Logging started @ 2018-08-30 10:39 (0000ms, 0266ms total)
T2570 000:322 JLINK_SetWarnOutHandler(...) (0000ms, 0266ms total)
T2570 000:322 JLINK_OpenEx(...)
Firmware: J-Link ARM V8 compiled Nov 28 2014 13:44:46
Hardware: V8.00
Feature(s): RDI,FlashDL,FlashBP,JFlash,GDBFull  returns O.K. (0263ms, 0529ms total)
T2570 000:585 JLINK_SetErrorOutHandler(...) (0000ms, 0529ms total)
T2570 000:585 JLINK_ExecCommand("ProjectFile = "D:\ViLight\Code_OK\SD_Card_note\SD_Card\MDK-ARM\JLinkSettings.ini"", ...)  returns 0x00 (0001ms, 0530ms total)
T2570 000:594 JLINK_ExecCommand("Device = STM32F103ZE", ...)Device "STM32F103ZE" selected.  returns 0x00 (0015ms, 0545ms total)
T2570 000:609 JLINK_ExecCommand("DisableConnectionTimeout", ...)  returns 0x01 (0000ms, 0545ms total)
T2570 000:609 JLINK_GetHardwareVersion()  returns 0x13880 (0000ms, 0545ms total)
T2570 000:609 JLINK_GetDLLVersion()  returns 50206 (0000ms, 0545ms total)
T2570 000:609 JLINK_GetFirmwareString(...) (0000ms, 0545ms total)
T2570 000:621 JLINK_GetDLLVersion()  returns 50206 (0000ms, 0545ms total)
T2570 000:621 JLINK_GetCompileDateTime() (0000ms, 0545ms total)
T2570 000:632 JLINK_GetFirmwareString(...) (0000ms, 0545ms total)
T2570 000:640 JLINK_GetHardwareVersion()  returns 0x13880 (0000ms, 0545ms total)
T2570 000:651 JLINK_TIF_Select(JLINKARM_TIF_JTAG)  returns 0x00 (0001ms, 0546ms total)
T2570 000:652 JLINK_SetSpeed(5000) (0000ms, 0546ms total)
T2570 000:652 JLINK_GetIdData(...) >0x2F8 JTAG>TotalIRLen = 9, IRPrint = 0x0011 >0x30 JTAG> >0x210 JTAG> >0x40 JTAG> >0x40 JTAG> >0x40 JTAG> >0x30 JTAG> >0x40 JTAG> >0x40 JTAG> >0x40 JTAG> >0x40 JTAG> >0x40 JTAG> >0x40 JTAG> >0x40 JTAG> >0x40 JTAG> >0x40 JTAG> >0x40 JTAG> >0x40 JTAG> >0x40 JTAG> >0x40 JTAG> >0x40 JTAG> >0x40 JTAG> >0x40 JTAG> >0x2F8 JTAG>TotalIRLen = 9, IRPrint = 0x0011 >0x30 JTAG> >0x210 JTAG> >0x70 JTAG> >0x40 JTAG> >0x40 JTAG> >0x40 JTAG> >0x50 JTAG> >0x80 JTAG> >0x40 JTAG>
 >0x30 JTAG> >0x40 JTAG> >0x40 JTAG> >0x30 JTAG> >0x40 JTAG> >0x50 JTAG>Found Cortex-M3 r1p1, Little endian. -- CPU_ReadMem(4 bytes @ 0xE000EDF0) -- CPU_WriteMem(4 bytes @ 0xE000EDF0) -- CPU_ReadMem(4 bytes @ 0xE0002000)FPUnit: 6 code (BP) slots and 2 literal slots -- CPU_ReadMem(4 bytes @ 0xE000EDFC) -- CPU_WriteMem(4 bytes @ 0xE000EDFC) -- CPU_ReadMem(4 bytes @ 0xE0001000) -- CPU_WriteMem(4 bytes @ 0xE0001000) -- CPU_ReadMem(4 bytes @ 0xE000ED88) -- CPU_WriteMem(4 bytes @ 0xE000ED88)
 -- CPU_ReadMem(4 bytes @ 0xE000ED88) -- CPU_WriteMem(4 bytes @ 0xE000ED88)CoreSight components:ROMTbl 0 @ E00FF000 -- CPU_ReadMem(16 bytes @ 0xE00FF000) -- CPU_ReadMem(16 bytes @ 0xE000EFF0) -- CPU_ReadMem(16 bytes @ 0xE000EFE0)ROMTbl 0 [0]: FFF0F000, CID: B105E00D, PID: 001BB000 SCS -- CPU_ReadMem(16 bytes @ 0xE0001FF0) -- CPU_ReadMem(16 bytes @ 0xE0001FE0)ROMTbl 0 [1]: FFF02000, CID: B105E00D, PID: 001BB002 DWT -- CPU_ReadMem(16 bytes @ 0xE0002FF0) -- CPU_ReadMem(16 bytes @ 0xE0002FE0)
ROMTbl 0 [2]: FFF03000, CID: B105E00D, PID: 000BB003 FPB -- CPU_ReadMem(16 bytes @ 0xE0000FF0) -- CPU_ReadMem(16 bytes @ 0xE0000FE0)ROMTbl 0 [3]: FFF01000, CID: B105E00D, PID: 001BB001 ITM -- CPU_ReadMem(16 bytes @ 0xE00FF010) -- CPU_ReadMem(16 bytes @ 0xE0040FF0) -- CPU_ReadMem(16 bytes @ 0xE0040FE0)ROMTbl 0 [4]: FFF41000, CID: B105900D, PID: 001BB923 TPIU-Lite -- CPU_ReadMem(16 bytes @ 0xE0041FF0) -- CPU_ReadMem(16 bytes @ 0xE0041FE0)ROMTbl 0 [5]: FFF42000, CID: B105900D, PID: 101BB924 ETM-M3 ScanLen=9
 NumDevices=2 aId[0]=0x3BA00477 aIrRead[0]=0 aScanLen[0]=0 aScanRead[0]=0 (0080ms, 0626ms total)
T2570 000:732 JLINK_JTAG_GetDeviceID(DeviceIndex = 0)  returns 0x3BA00477 (0000ms, 0626ms total)
T2570 000:732 JLINK_JTAG_GetDeviceInfo(DeviceIndex = 0)  returns 0x00 (0000ms, 0626ms total)
T2570 000:732 JLINK_JTAG_GetDeviceID(DeviceIndex = 1)  returns 0x6414041 (0000ms, 0626ms total)
T2570 000:732 JLINK_JTAG_GetDeviceInfo(DeviceIndex = 1)  returns 0x00 (0000ms, 0626ms total)
T2570 000:732 JLINK_GetDLLVersion()  returns 50206 (0000ms, 0626ms total)
T2570 000:732 JLINK_CORE_GetFound()  returns 0x30000FF (0000ms, 0626ms total)
T2570 000:732 JLINK_GetDebugInfo(0x100) -- Value=0xE00FF003  returns 0x00 (0000ms, 0626ms total)
T2570 000:736 JLINK_GetDebugInfo(0x100) -- Value=0xE00FF003  returns 0x00 (0000ms, 0626ms total)
T2570 000:736 JLINK_GetDebugInfo(0x101) -- Value=0xE0041000  returns 0x00 (0001ms, 0627ms total)
T2570 000:737 JLINK_GetDebugInfo(0x102) -- Value=0x00000000  returns 0x00 (0000ms, 0627ms total)
T2570 000:737 JLINK_GetDebugInfo(0x103) -- Value=0xE0040000  returns 0x00 (0000ms, 0627ms total)
T2570 000:737 JLINK_GetDebugInfo(0x104) -- Value=0xE0000000  returns 0x00 (0000ms, 0627ms total)
T2570 000:737 JLINK_GetDebugInfo(0x105) -- Value=0xE0001000  returns 0x00 (0000ms, 0627ms total)
T2570 000:737 JLINK_GetDebugInfo(0x106) -- Value=0xE0002000  returns 0x00 (0000ms, 0627ms total)
T2570 000:737 JLINK_GetDebugInfo(0x107) -- Value=0xE000E000  returns 0x00 (0000ms, 0627ms total)
T2570 000:737 JLINK_GetDebugInfo(0x10C) -- Value=0xE000EDF0  returns 0x00 (0000ms, 0627ms total)
T2570 000:737 JLINK_ReadMemU32(0xE000ED00, 0x0001 Items, ...) -- CPU is running -- CPU_ReadMem(4 bytes @ 0xE000ED00) - Data: 31 C2 1F 41  returns 0x01 (0000ms, 0627ms total)
T2570 000:737 JLINK_SetResetType(JLINKARM_RESET_TYPE_NORMAL)  returns JLINKARM_RESET_TYPE_NORMAL (0000ms, 0627ms total)
T2570 000:737 JLINK_Reset() -- CPU is running -- CPU_WriteMem(4 bytes @ 0xE000EDF0) -- CPU is running -- CPU_WriteMem(4 bytes @ 0xE000EDFC) -- CPU is running -- CPU_WriteMem(4 bytes @ 0xE000ED0C) -- CPU is running -- CPU_ReadMem(4 bytes @ 0xE000EDF0) -- CPU is running -- CPU_ReadMem(4 bytes @ 0xE000EDF0) -- CPU is running -- CPU_WriteMem(4 bytes @ 0xE000EDF0) -- CPU is running -- CPU_WriteMem(4 bytes @ 0xE000EDFC) -- CPU is running -- CPU_ReadMem(4 bytes @ 0xE000EDF0) >0x80 JTAG> >0x40 JTAG> >0x30 JTAG>
 >0x40 JTAG> >0x50 JTAG> >0x40 JTAG> -- CPU_WriteMem(4 bytes @ 0xE000EDFC) -- CPU_WriteMem(4 bytes @ 0xE0001028) -- CPU_WriteMem(4 bytes @ 0xE0001038) -- CPU_WriteMem(4 bytes @ 0xE0001048) -- CPU_WriteMem(4 bytes @ 0xE0001058) -- CPU_WriteMem(4 bytes @ 0xE0002000) -- CPU_ReadMem(4 bytes @ 0xE000EDFC) -- CPU_ReadMem(4 bytes @ 0xE0001000) (0026ms, 0653ms total)
T2570 000:763 JLINK_Halt()  returns 0x00 (0001ms, 0654ms total)
T2570 000:764 JLINK_IsHalted()  returns TRUE (0000ms, 0654ms total)
T2570 000:764 JLINK_ReadMemU32(0xE000EDF0, 0x0001 Items, ...) -- CPU_ReadMem(4 bytes @ 0xE000EDF0) - Data: 03 00 03 00  returns 0x01 (0000ms, 0654ms total)
T2570 000:764 JLINK_WriteU32(0xE000EDF0, 0xA05F0003) -- CPU_WriteMem(4 bytes @ 0xE000EDF0)  returns 0x00 (0000ms, 0654ms total)
T2570 000:764 JLINK_WriteU32(0xE000EDFC, 0x01000000) -- CPU_WriteMem(4 bytes @ 0xE000EDFC)  returns 0x00 (0000ms, 0654ms total)
T2570 000:773 JLINK_GetHWStatus(...)  returns 0x00 (0001ms, 0655ms total)
T2570 000:783 JLINK_GetNumBPUnits(Type = 0xFFFFFF00)  returns 0x06 (0000ms, 0655ms total)
T2570 000:783 JLINK_GetNumBPUnits(Type = 0xF0)  returns 0x2000 (0000ms, 0655ms total)
T2570 000:783 JLINK_GetNumWPUnits()  returns 0x04 (0000ms, 0655ms total)
T2570 000:791 JLINK_GetSpeed()  returns 0x12C0 (0001ms, 0656ms total)
T2570 000:799 JLINK_ReadMemU32(0xE000E004, 0x0001 Items, ...) -- CPU_ReadMem(4 bytes @ 0xE000E004) - Data: 01 00 00 00  returns 0x01 (0001ms, 0657ms total)
T2570 000:800 JLINK_ReadMemU32(0xE000E004, 0x0001 Items, ...) -- CPU_ReadMem(4 bytes @ 0xE000E004) - Data: 01 00 00 00  returns 0x01 (0001ms, 0658ms total)
T2570 000:801 JLINK_WriteMem(0xE0001000, 0x001C Bytes, ...) - Data: 01 00 00 00 00 00 00 00 00 00 00 00 00 00 00 00 ... -- CPU_WriteMem(28 bytes @ 0xE0001000)  returns 0x1C (0001ms, 0659ms total)
T2570 000:802 JLINK_ReadMem (0xE0001000, 0x001C Bytes, ...) -- CPU_ReadMem(28 bytes @ 0xE0001000) - Data: 01 00 00 40 00 00 00 00 00 00 00 00 00 00 00 00 ...  returns 0x00 (0001ms, 0660ms total)
T2570 000:803 JLINK_Halt()  returns 0x00 (0000ms, 0660ms total)
T2570 000:803 JLINK_IsHalted()  returns TRUE (0000ms, 0660ms total)
T2570 000:807 JLINK_WriteMem(0x20000000, 0x0164 Bytes, ...) - Data: 00 BE 0A E0 0D 78 2D 06 68 40 08 24 40 00 00 D3 ... -- CPU_WriteMem(356 bytes @ 0x20000000)  returns 0x164 (0004ms, 0664ms total)
T2570 000:811 JLINK_WriteReg(R0, 0x08000000)  returns 0x00 (0000ms, 0664ms total)
T2570 000:811 JLINK_WriteReg(R1, 0x044AA200)  returns 0x00 (0000ms, 0664ms total)
T2570 000:811 JLINK_WriteReg(R2, 0x00000001)  returns 0x00 (0000ms, 0664ms total)
T2570 000:811 JLINK_WriteReg(R3, 0x00000000)  returns 0x00 (0000ms, 0664ms total)
T2570 000:811 JLINK_WriteReg(R4, 0x00000000)  returns 0x00 (0000ms, 0664ms total)
T2570 000:811 JLINK_WriteReg(R5, 0x00000000)  returns 0x00 (0000ms, 0664ms total)
T2570 000:811 JLINK_WriteReg(R6, 0x00000000)  returns 0x00 (0000ms, 0664ms total)
T2570 000:811 JLINK_WriteReg(R7, 0x00000000)  returns 0x00 (0000ms, 0664ms total)
T2570 000:811 JLINK_WriteReg(R8, 0x00000000)  returns 0x00 (0000ms, 0664ms total)
T2570 000:811 JLINK_WriteReg(R9, 0x20000160)  returns 0x00 (0000ms, 0664ms total)
T2570 000:811 JLINK_WriteReg(R10, 0x00000000)  returns 0x00 (0000ms, 0664ms total)
T2570 000:811 JLINK_WriteReg(R11, 0x00000000)  returns 0x00 (0000ms, 0664ms total)
T2570 000:811 JLINK_WriteReg(R12, 0x00000000)  returns 0x00 (0000ms, 0664ms total)
T2570 000:811 JLINK_WriteReg(R13 (SP), 0x20001000)  returns 0x00 (0000ms, 0664ms total)
T2570 000:811 JLINK_WriteReg(R14, 0x20000001)  returns 0x00 (0000ms, 0664ms total)
T2570 000:811 JLINK_WriteReg(R15 (PC), 0x20000038)  returns 0x00 (0000ms, 0664ms total)
T2570 000:812 JLINK_WriteReg(XPSR, 0x01000000)  returns 0x00 (0000ms, 0664ms total)
T2570 000:812 JLINK_WriteReg(MSP, 0x20001000)  returns 0x00 (0000ms, 0664ms total)
T2570 000:812 JLINK_WriteReg(PSP, 0x20001000)  returns 0x00 (0000ms, 0664ms total)
T2570 000:812 JLINK_WriteReg(CFBP, 0x00000000)  returns 0x00 (0000ms, 0664ms total)
T2570 000:812 JLINK_SetBPEx(Addr = 0x20000000, Type = 0xFFFFFFF2) -- CPU_ReadMem(2 bytes @ 0x20000000)  returns 0x00000001 (0000ms, 0664ms total)
T2570 000:812 JLINK_Go() -- CPU_WriteMem(2 bytes @ 0x20000000) -- CPU_ReadMem(4 bytes @ 0xE0001000) -- CPU_WriteMem(4 bytes @ 0xE0002008) -- CPU_WriteMem(4 bytes @ 0xE000200C) -- CPU_WriteMem(4 bytes @ 0xE0002010) -- CPU_WriteMem(4 bytes @ 0xE0002014) -- CPU_WriteMem(4 bytes @ 0xE0002018) -- CPU_WriteMem(4 bytes @ 0xE000201C) -- CPU_WriteMem(4 bytes @ 0xE0001004) (0006ms, 0670ms total)
T2570 000:819 JLINK_IsHalted() -- CPU_ReadMem(2 bytes @ 0x20000000)  returns TRUE (0004ms, 0674ms total)
T2570 000:823 JLINK_ReadReg(R15 (PC))  returns 0x20000000 (0000ms, 0670ms total)
T2570 000:823 JLINK_ClrBPEx(BPHandle = 0x00000001)  returns 0x00 (0000ms, 0670ms total)
T2570 000:823 JLINK_ReadReg(R0)  returns 0x00000000 (0000ms, 0670ms total)
T2570 000:823 JLINK_WriteReg(R0, 0x08000000)  returns 0x00 (0000ms, 0670ms total)
T2570 000:823 JLINK_WriteReg(R1, 0x044AA200)  returns 0x00 (0000ms, 0670ms total)
T2570 000:823 JLINK_WriteReg(R2, 0x00000001)  returns 0x00 (0000ms, 0670ms total)
T2570 000:823 JLINK_WriteReg(R3, 0x00000000)  returns 0x00 (0000ms, 0670ms total)
T2570 000:823 JLINK_WriteReg(R4, 0x00000000)  returns 0x00 (0000ms, 0670ms total)
T2570 000:823 JLINK_WriteReg(R5, 0x00000000)  returns 0x00 (0000ms, 0670ms total)
T2570 000:823 JLINK_WriteReg(R6, 0x00000000)  returns 0x00 (0000ms, 0670ms total)
T2570 000:823 JLINK_WriteReg(R7, 0x00000000)  returns 0x00 (0000ms, 0670ms total)
T2570 000:823 JLINK_WriteReg(R8, 0x00000000)  returns 0x00 (0000ms, 0670ms total)
T2570 000:823 JLINK_WriteReg(R9, 0x20000160)  returns 0x00 (0000ms, 0670ms total)
T2570 000:823 JLINK_WriteReg(R10, 0x00000000)  returns 0x00 (0001ms, 0671ms total)
T2570 000:824 JLINK_WriteReg(R11, 0x00000000)  returns 0x00 (0000ms, 0671ms total)
T2570 000:824 JLINK_WriteReg(R12, 0x00000000)  returns 0x00 (0000ms, 0671ms total)
T2570 000:824 JLINK_WriteReg(R13 (SP), 0x20001000)  returns 0x00 (0000ms, 0671ms total)
T2570 000:824 JLINK_WriteReg(R14, 0x20000001)  returns 0x00 (0000ms, 0671ms total)
T2570 000:824 JLINK_WriteReg(R15 (PC), 0x2000007C)  returns 0x00 (0000ms, 0671ms total)
T2570 000:824 JLINK_WriteReg(XPSR, 0x01000000)  returns 0x00 (0000ms, 0671ms total)
T2570 000:824 JLINK_WriteReg(MSP, 0x20001000)  returns 0x00 (0000ms, 0671ms total)
T2570 000:824 JLINK_WriteReg(PSP, 0x20001000)  returns 0x00 (0000ms, 0671ms total)
T2570 000:824 JLINK_WriteReg(CFBP, 0x00000000)  returns 0x00 (0000ms, 0671ms total)
T2570 000:824 JLINK_SetBPEx(Addr = 0x20000000, Type = 0xFFFFFFF2)  returns 0x00000002 (0000ms, 0671ms total)
T2570 000:824 JLINK_Go() -- CPU_ReadMem(4 bytes @ 0xE0001000) (0002ms, 0673ms total)
T2570 000:826 JLINK_IsHalted()  returns FALSE (0000ms, 0673ms total)
T2570 000:876 JLINK_IsHalted() -- CPU_ReadMem(2 bytes @ 0x20000000)  returns TRUE (0003ms, 0676ms total)
T2570 000:879 JLINK_ReadReg(R15 (PC))  returns 0x20000000 (0000ms, 0673ms total)
T2570 000:879 JLINK_ClrBPEx(BPHandle = 0x00000002)  returns 0x00 (0000ms, 0673ms total)
T2570 000:879 JLINK_ReadReg(R0)  returns 0x00000000 (0000ms, 0673ms total)
T2570 000:931 JLINK_WriteReg(R0, 0x00000001)  returns 0x00 (0000ms, 0673ms total)
T2570 000:931 JLINK_WriteReg(R1, 0x044AA200)  returns 0x00 (0000ms, 0673ms total)
T2570 000:931 JLINK_WriteReg(R2, 0x00000001)  returns 0x00 (0000ms, 0673ms total)
T2570 000:931 JLINK_WriteReg(R3, 0x00000000)  returns 0x00 (0000ms, 0673ms total)
T2570 000:931 JLINK_WriteReg(R4, 0x00000000)  returns 0x00 (0000ms, 0673ms total)
T2570 000:931 JLINK_WriteReg(R5, 0x00000000)  returns 0x00 (0000ms, 0673ms total)
T2570 000:931 JLINK_WriteReg(R6, 0x00000000)  returns 0x00 (0000ms, 0673ms total)
T2570 000:931 JLINK_WriteReg(R7, 0x00000000)  returns 0x00 (0000ms, 0673ms total)
T2570 000:931 JLINK_WriteReg(R8, 0x00000000)  returns 0x00 (0000ms, 0673ms total)
T2570 000:931 JLINK_WriteReg(R9, 0x20000160)  returns 0x00 (0000ms, 0673ms total)
T2570 000:931 JLINK_WriteReg(R10, 0x00000000)  returns 0x00 (0000ms, 0673ms total)
T2570 000:931 JLINK_WriteReg(R11, 0x00000000)  returns 0x00 (0000ms, 0673ms total)
T2570 000:931 JLINK_WriteReg(R12, 0x00000000)  returns 0x00 (0000ms, 0673ms total)
T2570 000:931 JLINK_WriteReg(R13 (SP), 0x20001000)  returns 0x00 (0000ms, 0673ms total)
T2570 000:931 JLINK_WriteReg(R14, 0x20000001)  returns 0x00 (0000ms, 0673ms total)
T2570 000:931 JLINK_WriteReg(R15 (PC), 0x2000006A)  returns 0x00 (0001ms, 0674ms total)
T2570 000:932 JLINK_WriteReg(XPSR, 0x01000000)  returns 0x00 (0000ms, 0674ms total)
T2570 000:932 JLINK_WriteReg(MSP, 0x20001000)  returns 0x00 (0000ms, 0674ms total)
T2570 000:932 JLINK_WriteReg(PSP, 0x20001000)  returns 0x00 (0000ms, 0674ms total)
T2570 000:932 JLINK_WriteReg(CFBP, 0x00000000)  returns 0x00 (0000ms, 0674ms total)
T2570 000:932 JLINK_SetBPEx(Addr = 0x20000000, Type = 0xFFFFFFF2)  returns 0x00000003 (0000ms, 0674ms total)
T2570 000:932 JLINK_Go() -- CPU_ReadMem(4 bytes @ 0xE0001000) (0002ms, 0676ms total)
T2570 000:934 JLINK_IsHalted() -- CPU_ReadMem(2 bytes @ 0x20000000)  returns TRUE (0004ms, 0680ms total)
T2570 000:938 JLINK_ReadReg(R15 (PC))  returns 0x20000000 (0000ms, 0676ms total)
T2570 000:938 JLINK_ClrBPEx(BPHandle = 0x00000003)  returns 0x00 (0000ms, 0676ms total)
T2570 000:938 JLINK_ReadReg(R0)  returns 0x00000000 (0000ms, 0676ms total)
T2570 000:945 JLINK_WriteMem(0x20000000, 0x0164 Bytes, ...) - Data: 00 BE 0A E0 0D 78 2D 06 68 40 08 24 40 00 00 D3 ... -- CPU_WriteMem(356 bytes @ 0x20000000)  returns 0x164 (0004ms, 0680ms total)
T2570 000:949 JLINK_WriteReg(R0, 0x08000000)  returns 0x00 (0000ms, 0680ms total)
T2570 000:949 JLINK_WriteReg(R1, 0x044AA200)  returns 0x00 (0000ms, 0680ms total)
T2570 000:949 JLINK_WriteReg(R2, 0x00000002)  returns 0x00 (0000ms, 0680ms total)
T2570 000:949 JLINK_WriteReg(R3, 0x00000000)  returns 0x00 (0000ms, 0680ms total)
T2570 000:949 JLINK_WriteReg(R4, 0x00000000)  returns 0x00 (0000ms, 0680ms total)
T2570 000:949 JLINK_WriteReg(R5, 0x00000000)  returns 0x00 (0000ms, 0680ms total)
T2570 000:949 JLINK_WriteReg(R6, 0x00000000)  returns 0x00 (0000ms, 0680ms total)
T2570 000:949 JLINK_WriteReg(R7, 0x00000000)  returns 0x00 (0000ms, 0680ms total)
T2570 000:949 JLINK_WriteReg(R8, 0x00000000)  returns 0x00 (0000ms, 0680ms total)
T2570 000:949 JLINK_WriteReg(R9, 0x20000160)  returns 0x00 (0000ms, 0680ms total)
T2570 000:949 JLINK_WriteReg(R10, 0x00000000)  returns 0x00 (0000ms, 0680ms total)
T2570 000:949 JLINK_WriteReg(R11, 0x00000000)  returns 0x00 (0000ms, 0680ms total)
T2570 000:949 JLINK_WriteReg(R12, 0x00000000)  returns 0x00 (0000ms, 0680ms total)
T2570 000:949 JLINK_WriteReg(R13 (SP), 0x20001000)  returns 0x00 (0000ms, 0680ms total)
T2570 000:950 JLINK_WriteReg(R14, 0x20000001)  returns 0x00 (0000ms, 0681ms total)
T2570 000:950 JLINK_WriteReg(R15 (PC), 0x20000038)  returns 0x00 (0000ms, 0681ms total)
T2570 000:950 JLINK_WriteReg(XPSR, 0x01000000)  returns 0x00 (0000ms, 0681ms total)
T2570 000:950 JLINK_WriteReg(MSP, 0x20001000)  returns 0x00 (0000ms, 0681ms total)
T2570 000:950 JLINK_WriteReg(PSP, 0x20001000)  returns 0x00 (0000ms, 0681ms total)
T2570 000:950 JLINK_WriteReg(CFBP, 0x00000000)  returns 0x00 (0000ms, 0681ms total)
T2570 000:950 JLINK_SetBPEx(Addr = 0x20000000, Type = 0xFFFFFFF2) -- CPU_ReadMem(2 bytes @ 0x20000000)  returns 0x00000004 (0000ms, 0681ms total)
T2570 000:950 JLINK_Go() -- CPU_WriteMem(2 bytes @ 0x20000000) -- CPU_ReadMem(4 bytes @ 0xE0001000) (0002ms, 0683ms total)
T2570 000:952 JLINK_IsHalted() -- CPU_ReadMem(2 bytes @ 0x20000000)  returns TRUE (0005ms, 0688ms total)
T2570 000:957 JLINK_ReadReg(R15 (PC))  returns 0x20000000 (0000ms, 0683ms total)
T2570 000:957 JLINK_ClrBPEx(BPHandle = 0x00000004)  returns 0x00 (0000ms, 0683ms total)
T2570 000:957 JLINK_ReadReg(R0)  returns 0x00000000 (0000ms, 0683ms total)
T2570 000:957 JLINK_WriteMem(0x20000164, 0x0400 Bytes, ...) - Data: E8 2D 00 20 45 01 00 08 D7 19 00 08 F1 18 00 08 ... -- CPU_WriteMem(1024 bytes @ 0x20000164)  returns 0x400 (0008ms, 0691ms total)
T2570 000:965 JLINK_WriteReg(R0, 0x08000000)  returns 0x00 (0000ms, 0691ms total)
T2570 000:965 JLINK_WriteReg(R1, 0x00000400)  returns 0x00 (0000ms, 0691ms total)
T2570 000:965 JLINK_WriteReg(R2, 0x20000164)  returns 0x00 (0000ms, 0691ms total)
T2570 000:965 JLINK_WriteReg(R3, 0x00000000)  returns 0x00 (0000ms, 0691ms total)
T2570 000:965 JLINK_WriteReg(R4, 0x00000000)  returns 0x00 (0000ms, 0691ms total)
T2570 000:965 JLINK_WriteReg(R5, 0x00000000)  returns 0x00 (0000ms, 0691ms total)
T2570 000:965 JLINK_WriteReg(R6, 0x00000000)  returns 0x00 (0000ms, 0691ms total)
T2570 000:965 JLINK_WriteReg(R7, 0x00000000)  returns 0x00 (0000ms, 0691ms total)
T2570 000:965 JLINK_WriteReg(R8, 0x00000000)  returns 0x00 (0000ms, 0691ms total)
T2570 000:965 JLINK_WriteReg(R9, 0x20000160)  returns 0x00 (0000ms, 0691ms total)
T2570 000:965 JLINK_WriteReg(R10, 0x00000000)  returns 0x00 (0000ms, 0691ms total)
T2570 000:965 JLINK_WriteReg(R11, 0x00000000)  returns 0x00 (0000ms, 0691ms total)
T2570 000:965 JLINK_WriteReg(R12, 0x00000000)  returns 0x00 (0000ms, 0691ms total)
T2570 000:965 JLINK_WriteReg(R13 (SP), 0x20001000)  returns 0x00 (0000ms, 0691ms total)
T2570 000:965 JLINK_WriteReg(R14, 0x20000001)  returns 0x00 (0000ms, 0691ms total)
T2570 000:965 JLINK_WriteReg(R15 (PC), 0x200000F4)  returns 0x00 (0000ms, 0691ms total)
T2570 000:965 JLINK_WriteReg(XPSR, 0x01000000)  returns 0x00 (0000ms, 0691ms total)
T2570 000:965 JLINK_WriteReg(MSP, 0x20001000)  returns 0x00 (0000ms, 0691ms total)
T2570 000:965 JLINK_WriteReg(PSP, 0x20001000)  returns 0x00 (0000ms, 0691ms total)
T2570 000:965 JLINK_WriteReg(CFBP, 0x00000000)  returns 0x00 (0000ms, 0691ms total)
T2570 000:965 JLINK_SetBPEx(Addr = 0x20000000, Type = 0xFFFFFFF2)  returns 0x00000005 (0000ms, 0691ms total)
T2570 000:965 JLINK_Go() -- CPU_ReadMem(4 bytes @ 0xE0001000) (0003ms, 0694ms total)
T2570 000:968 JLINK_IsHalted()  returns FALSE (0001ms, 0695ms total)
T2570 000:995 JLINK_IsHalted()  returns FALSE (0000ms, 0694ms total)
T2570 001:004 JLINK_IsHalted() -- CPU_ReadMem(2 bytes @ 0x20000000)  returns TRUE (0004ms, 0698ms total)
T2570 001:008 JLINK_ReadReg(R15 (PC))  returns 0x20000000 (0000ms, 0694ms total)
T2570 001:008 JLINK_ClrBPEx(BPHandle = 0x00000005)  returns 0x00 (0000ms, 0694ms total)
T2570 001:008 JLINK_ReadReg(R0)  returns 0x00000000 (0000ms, 0694ms total)
T2570 001:009 JLINK_WriteMem(0x20000164, 0x0400 Bytes, ...) - Data: 07 48 10 B5 01 68 41 F0 10 01 01 60 03 20 00 F0 ... -- CPU_WriteMem(1024 bytes @ 0x20000164)  returns 0x400 (0008ms, 0702ms total)
T2570 001:017 JLINK_WriteReg(R0, 0x08000400)  returns 0x00 (0000ms, 0702ms total)
T2570 001:017 JLINK_WriteReg(R1, 0x00000400)  returns 0x00 (0000ms, 0702ms total)
T2570 001:017 JLINK_WriteReg(R2, 0x20000164)  returns 0x00 (0000ms, 0702ms total)
T2570 001:017 JLINK_WriteReg(R3, 0x00000000)  returns 0x00 (0000ms, 0702ms total)
T2570 001:017 JLINK_WriteReg(R4, 0x00000000)  returns 0x00 (0000ms, 0702ms total)
T2570 001:017 JLINK_WriteReg(R5, 0x00000000)  returns 0x00 (0000ms, 0702ms total)
T2570 001:017 JLINK_WriteReg(R6, 0x00000000)  returns 0x00 (0000ms, 0702ms total)
T2570 001:017 JLINK_WriteReg(R7, 0x00000000)  returns 0x00 (0000ms, 0702ms total)
T2570 001:017 JLINK_WriteReg(R8, 0x00000000)  returns 0x00 (0000ms, 0702ms total)
T2570 001:017 JLINK_WriteReg(R9, 0x20000160)  returns 0x00 (0000ms, 0702ms total)
T2570 001:017 JLINK_WriteReg(R10, 0x00000000)  returns 0x00 (0000ms, 0702ms total)
T2570 001:017 JLINK_WriteReg(R11, 0x00000000)  returns 0x00 (0000ms, 0702ms total)
T2570 001:017 JLINK_WriteReg(R12, 0x00000000)  returns 0x00 (0000ms, 0702ms total)
T2570 001:017 JLINK_WriteReg(R13 (SP), 0x20001000)  returns 0x00 (0000ms, 0702ms total)
T2570 001:017 JLINK_WriteReg(R14, 0x20000001)  returns 0x00 (0000ms, 0702ms total)
T2570 001:017 JLINK_WriteReg(R15 (PC), 0x200000F4)  returns 0x00 (0000ms, 0702ms total)
T2570 001:017 JLINK_WriteReg(XPSR, 0x01000000)  returns 0x00 (0000ms, 0702ms total)
T2570 001:017 JLINK_WriteReg(MSP, 0x20001000)  returns 0x00 (0000ms, 0702ms total)
T2570 001:017 JLINK_WriteReg(PSP, 0x20001000)  returns 0x00 (0000ms, 0702ms total)
T2570 001:017 JLINK_WriteReg(CFBP, 0x00000000)  returns 0x00 (0000ms, 0702ms total)
T2570 001:017 JLINK_SetBPEx(Addr = 0x20000000, Type = 0xFFFFFFF2)  returns 0x00000006 (0000ms, 0702ms total)
T2570 001:017 JLINK_Go() -- CPU_ReadMem(4 bytes @ 0xE0001000) (0002ms, 0704ms total)
T2570 001:019 JLINK_IsHalted()  returns FALSE (0001ms, 0705ms total)
T2570 001:023 JLINK_IsHalted()  returns FALSE (0001ms, 0705ms total)
T2570 001:025 JLINK_IsHalted()  returns FALSE (0000ms, 0704ms total)
T2570 001:027 JLINK_IsHalted()  returns FALSE (0000ms, 0704ms total)
T2570 001:032 JLINK_IsHalted()  returns FALSE (0000ms, 0704ms total)
T2570 001:034 JLINK_IsHalted()  returns FALSE (0000ms, 0704ms total)
T2570 001:036 JLINK_IsHalted()  returns FALSE (0001ms, 0705ms total)
T2570 001:038 JLINK_IsHalted()  returns FALSE (0000ms, 0704ms total)
T2570 001:040 JLINK_IsHalted()  returns FALSE (0000ms, 0704ms total)
T2570 001:042 JLINK_IsHalted()  returns FALSE (0000ms, 0704ms total)
T2570 001:050 JLINK_IsHalted() -- CPU_ReadMem(2 bytes @ 0x20000000)  returns TRUE (0003ms, 0707ms total)
T2570 001:053 JLINK_ReadReg(R15 (PC))  returns 0x20000000 (0000ms, 0704ms total)
T2570 001:053 JLINK_ClrBPEx(BPHandle = 0x00000006)  returns 0x00 (0000ms, 0704ms total)
T2570 001:053 JLINK_ReadReg(R0)  returns 0x00000000 (0000ms, 0704ms total)
T2570 001:054 JLINK_WriteMem(0x20000164, 0x0400 Bytes, ...) - Data: 00 10 02 40 BC 46 00 08 00 B5 FF F7 CD FF 07 49 ... -- CPU_WriteMem(1024 bytes @ 0x20000164)  returns 0x400 (0009ms, 0713ms total)
T2570 001:063 JLINK_WriteReg(R0, 0x08000800)  returns 0x00 (0000ms, 0713ms total)
T2570 001:063 JLINK_WriteReg(R1, 0x00000400)  returns 0x00 (0000ms, 0713ms total)
T2570 001:063 JLINK_WriteReg(R2, 0x20000164)  returns 0x00 (0000ms, 0713ms total)
T2570 001:063 JLINK_WriteReg(R3, 0x00000000)  returns 0x00 (0000ms, 0713ms total)
T2570 001:063 JLINK_WriteReg(R4, 0x00000000)  returns 0x00 (0000ms, 0713ms total)
T2570 001:063 JLINK_WriteReg(R5, 0x00000000)  returns 0x00 (0000ms, 0713ms total)
T2570 001:063 JLINK_WriteReg(R6, 0x00000000)  returns 0x00 (0000ms, 0713ms total)
T2570 001:063 JLINK_WriteReg(R7, 0x00000000)  returns 0x00 (0000ms, 0713ms total)
T2570 001:063 JLINK_WriteReg(R8, 0x00000000)  returns 0x00 (0000ms, 0713ms total)
T2570 001:063 JLINK_WriteReg(R9, 0x20000160)  returns 0x00 (0000ms, 0713ms total)
T2570 001:063 JLINK_WriteReg(R10, 0x00000000)  returns 0x00 (0000ms, 0713ms total)
T2570 001:063 JLINK_WriteReg(R11, 0x00000000)  returns 0x00 (0000ms, 0713ms total)
T2570 001:063 JLINK_WriteReg(R12, 0x00000000)  returns 0x00 (0000ms, 0713ms total)
T2570 001:063 JLINK_WriteReg(R13 (SP), 0x20001000)  returns 0x00 (0000ms, 0713ms total)
T2570 001:063 JLINK_WriteReg(R14, 0x20000001)  returns 0x00 (0000ms, 0713ms total)
T2570 001:063 JLINK_WriteReg(R15 (PC), 0x200000F4)  returns 0x00 (0001ms, 0714ms total)
T2570 001:064 JLINK_WriteReg(XPSR, 0x01000000)  returns 0x00 (0000ms, 0714ms total)
T2570 001:064 JLINK_WriteReg(MSP, 0x20001000)  returns 0x00 (0000ms, 0714ms total)
T2570 001:064 JLINK_WriteReg(PSP, 0x20001000)  returns 0x00 (0000ms, 0714ms total)
T2570 001:064 JLINK_WriteReg(CFBP, 0x00000000)  returns 0x00 (0000ms, 0714ms total)
T2570 001:064 JLINK_SetBPEx(Addr = 0x20000000, Type = 0xFFFFFFF2)  returns 0x00000007 (0000ms, 0714ms total)
T2570 001:064 JLINK_Go() -- CPU_ReadMem(4 bytes @ 0xE0001000) (0002ms, 0716ms total)
T2570 001:066 JLINK_IsHalted()  returns FALSE (0000ms, 0716ms total)
T2570 001:068 JLINK_IsHalted()  returns FALSE (0000ms, 0716ms total)
T2570 001:070 JLINK_IsHalted()  returns FALSE (0000ms, 0716ms total)
T2570 001:072 JLINK_IsHalted()  returns FALSE (0000ms, 0716ms total)
T2570 001:074 JLINK_IsHalted()  returns FALSE (0000ms, 0716ms total)
T2570 001:076 JLINK_IsHalted()  returns FALSE (0000ms, 0716ms total)
T2570 001:078 JLINK_IsHalted()  returns FALSE (0000ms, 0716ms total)
T2570 001:080 JLINK_IsHalted()  returns FALSE (0000ms, 0716ms total)
T2570 001:082 JLINK_IsHalted()  returns FALSE (0000ms, 0716ms total)
T2570 001:084 JLINK_IsHalted()  returns FALSE (0000ms, 0716ms total)
T2570 001:086 JLINK_IsHalted()  returns FALSE (0001ms, 0717ms total)
T2570 001:089 JLINK_IsHalted()  returns FALSE (0000ms, 0716ms total)
T2570 001:091 JLINK_IsHalted()  returns FALSE (0000ms, 0716ms total)
T2570 001:093 JLINK_IsHalted()  returns FALSE (0000ms, 0716ms total)
T2570 001:095 JLINK_IsHalted()  returns FALSE (0000ms, 0716ms total)
T2570 001:097 JLINK_IsHalted() -- CPU_ReadMem(2 bytes @ 0x20000000)  returns TRUE (0003ms, 0719ms total)
T2570 001:100 JLINK_ReadReg(R15 (PC))  returns 0x20000000 (0000ms, 0716ms total)
T2570 001:101 JLINK_ClrBPEx(BPHandle = 0x00000007)  returns 0x00 (0000ms, 0716ms total)
T2570 001:101 JLINK_ReadReg(R0)  returns 0x00000000 (0000ms, 0716ms total)
T2570 001:102 JLINK_WriteMem(0x20000164, 0x0400 Bytes, ...) - Data: 30 6A 00 E0 70 6A 97 FA A7 F1 B1 FA 81 F1 01 F0 ... -- CPU_WriteMem(1024 bytes @ 0x20000164)  returns 0x400 (0008ms, 0724ms total)
T2570 001:110 JLINK_WriteReg(R0, 0x08000C00)  returns 0x00 (0000ms, 0724ms total)
T2570 001:110 JLINK_WriteReg(R1, 0x00000400)  returns 0x00 (0000ms, 0724ms total)
T2570 001:110 JLINK_WriteReg(R2, 0x20000164)  returns 0x00 (0000ms, 0724ms total)
T2570 001:110 JLINK_WriteReg(R3, 0x00000000)  returns 0x00 (0000ms, 0724ms total)
T2570 001:110 JLINK_WriteReg(R4, 0x00000000)  returns 0x00 (0000ms, 0724ms total)
T2570 001:110 JLINK_WriteReg(R5, 0x00000000)  returns 0x00 (0000ms, 0724ms total)
T2570 001:110 JLINK_WriteReg(R6, 0x00000000)  returns 0x00 (0000ms, 0724ms total)
T2570 001:110 JLINK_WriteReg(R7, 0x00000000)  returns 0x00 (0000ms, 0724ms total)
T2570 001:110 JLINK_WriteReg(R8, 0x00000000)  returns 0x00 (0000ms, 0724ms total)
T2570 001:110 JLINK_WriteReg(R9, 0x20000160)  returns 0x00 (0000ms, 0724ms total)
T2570 001:110 JLINK_WriteReg(R10, 0x00000000)  returns 0x00 (0000ms, 0724ms total)
T2570 001:110 JLINK_WriteReg(R11, 0x00000000)  returns 0x00 (0000ms, 0724ms total)
T2570 001:110 JLINK_WriteReg(R12, 0x00000000)  returns 0x00 (0000ms, 0724ms total)
T2570 001:110 JLINK_WriteReg(R13 (SP), 0x20001000)  returns 0x00 (0000ms, 0724ms total)
T2570 001:110 JLINK_WriteReg(R14, 0x20000001)  returns 0x00 (0000ms, 0724ms total)
T2570 001:110 JLINK_WriteReg(R15 (PC), 0x200000F4)  returns 0x00 (0000ms, 0724ms total)
T2570 001:110 JLINK_WriteReg(XPSR, 0x01000000)  returns 0x00 (0000ms, 0724ms total)
T2570 001:110 JLINK_WriteReg(MSP, 0x20001000)  returns 0x00 (0000ms, 0724ms total)
T2570 001:110 JLINK_WriteReg(PSP, 0x20001000)  returns 0x00 (0001ms, 0725ms total)
T2570 001:111 JLINK_WriteReg(CFBP, 0x00000000)  returns 0x00 (0000ms, 0725ms total)
T2570 001:111 JLINK_SetBPEx(Addr = 0x20000000, Type = 0xFFFFFFF2)  returns 0x00000008 (0000ms, 0725ms total)
T2570 001:111 JLINK_Go() -- CPU_ReadMem(4 bytes @ 0xE0001000) (0002ms, 0727ms total)
T2570 001:113 JLINK_IsHalted()  returns FALSE (0001ms, 0728ms total)
T2570 001:127 JLINK_IsHalted()  returns FALSE (0001ms, 0728ms total)
T2570 001:130 JLINK_IsHalted()  returns FALSE (0000ms, 0727ms total)
T2570 001:133 JLINK_IsHalted()  returns FALSE (0000ms, 0727ms total)
T2570 001:135 JLINK_IsHalted()  returns FALSE (0000ms, 0727ms total)
T2570 001:137 JLINK_IsHalted()  returns FALSE (0000ms, 0727ms total)
T2570 001:139 JLINK_IsHalted()  returns FALSE (0000ms, 0727ms total)
T2570 001:146 JLINK_IsHalted() -- CPU_ReadMem(2 bytes @ 0x20000000)  returns TRUE (0003ms, 0730ms total)
T2570 001:149 JLINK_ReadReg(R15 (PC))  returns 0x20000000 (0000ms, 0727ms total)
T2570 001:149 JLINK_ClrBPEx(BPHandle = 0x00000008)  returns 0x00 (0000ms, 0727ms total)
T2570 001:149 JLINK_ReadReg(R0)  returns 0x00000000 (0000ms, 0727ms total)
T2570 001:150 JLINK_WriteMem(0x20000164, 0x0400 Bytes, ...) - Data: 76 D0 01 26 84 F8 50 60 94 F8 51 00 01 28 03 D0 ... -- CPU_WriteMem(1024 bytes @ 0x20000164)  returns 0x400 (0009ms, 0736ms total)
T2570 001:159 JLINK_WriteReg(R0, 0x08001000)  returns 0x00 (0000ms, 0736ms total)
T2570 001:159 JLINK_WriteReg(R1, 0x00000400)  returns 0x00 (0000ms, 0736ms total)
T2570 001:159 JLINK_WriteReg(R2, 0x20000164)  returns 0x00 (0000ms, 0736ms total)
T2570 001:159 JLINK_WriteReg(R3, 0x00000000)  returns 0x00 (0000ms, 0736ms total)
T2570 001:159 JLINK_WriteReg(R4, 0x00000000)  returns 0x00 (0000ms, 0736ms total)
T2570 001:159 JLINK_WriteReg(R5, 0x00000000)  returns 0x00 (0000ms, 0736ms total)
T2570 001:159 JLINK_WriteReg(R6, 0x00000000)  returns 0x00 (0000ms, 0736ms total)
T2570 001:159 JLINK_WriteReg(R7, 0x00000000)  returns 0x00 (0000ms, 0736ms total)
T2570 001:159 JLINK_WriteReg(R8, 0x00000000)  returns 0x00 (0000ms, 0736ms total)
T2570 001:159 JLINK_WriteReg(R9, 0x20000160)  returns 0x00 (0000ms, 0736ms total)
T2570 001:159 JLINK_WriteReg(R10, 0x00000000)  returns 0x00 (0000ms, 0736ms total)
T2570 001:159 JLINK_WriteReg(R11, 0x00000000)  returns 0x00 (0000ms, 0736ms total)
T2570 001:159 JLINK_WriteReg(R12, 0x00000000)  returns 0x00 (0000ms, 0736ms total)
T2570 001:159 JLINK_WriteReg(R13 (SP), 0x20001000)  returns 0x00 (0000ms, 0736ms total)
T2570 001:159 JLINK_WriteReg(R14, 0x20000001)  returns 0x00 (0000ms, 0736ms total)
T2570 001:159 JLINK_WriteReg(R15 (PC), 0x200000F4)  returns 0x00 (0000ms, 0736ms total)
T2570 001:159 JLINK_WriteReg(XPSR, 0x01000000)  returns 0x00 (0000ms, 0736ms total)
T2570 001:159 JLINK_WriteReg(MSP, 0x20001000)  returns 0x00 (0000ms, 0736ms total)
T2570 001:159 JLINK_WriteReg(PSP, 0x20001000)  returns 0x00 (0000ms, 0736ms total)
T2570 001:159 JLINK_WriteReg(CFBP, 0x00000000)  returns 0x00 (0000ms, 0736ms total)
T2570 001:159 JLINK_SetBPEx(Addr = 0x20000000, Type = 0xFFFFFFF2)  returns 0x00000009 (0000ms, 0736ms total)
T2570 001:159 JLINK_Go() -- CPU_ReadMem(4 bytes @ 0xE0001000) (0002ms, 0738ms total)
T2570 001:162 JLINK_IsHalted()  returns FALSE (0000ms, 0739ms total)
T2570 001:166 JLINK_IsHalted()  returns FALSE (0000ms, 0739ms total)
T2570 001:168 JLINK_IsHalted()  returns FALSE (0000ms, 0739ms total)
T2570 001:170 JLINK_IsHalted()  returns FALSE (0000ms, 0739ms total)
T2570 001:172 JLINK_IsHalted()  returns FALSE (0001ms, 0740ms total)
T2570 001:175 JLINK_IsHalted()  returns FALSE (0000ms, 0739ms total)
T2570 001:177 JLINK_IsHalted()  returns FALSE (0000ms, 0739ms total)
T2570 001:179 JLINK_IsHalted()  returns FALSE (0000ms, 0739ms total)
T2570 001:180 JLINK_IsHalted()  returns FALSE (0000ms, 0739ms total)
T2570 001:182 JLINK_IsHalted()  returns FALSE (0000ms, 0739ms total)
T2570 001:184 JLINK_IsHalted()  returns FALSE (0000ms, 0739ms total)
T2570 001:186 JLINK_IsHalted()  returns FALSE (0000ms, 0739ms total)
T2570 001:188 JLINK_IsHalted()  returns FALSE (0000ms, 0739ms total)
T2570 001:190 JLINK_IsHalted()  returns FALSE (0001ms, 0740ms total)
T2570 001:193 JLINK_IsHalted() -- CPU_ReadMem(2 bytes @ 0x20000000)  returns TRUE (0004ms, 0743ms total)
T2570 001:197 JLINK_ReadReg(R15 (PC))  returns 0x20000000 (0000ms, 0739ms total)
T2570 001:197 JLINK_ClrBPEx(BPHandle = 0x00000009)  returns 0x00 (0000ms, 0739ms total)
T2570 001:197 JLINK_ReadReg(R0)  returns 0x00000000 (0000ms, 0739ms total)
T2570 001:198 JLINK_WriteMem(0x20000164, 0x0400 Bytes, ...) - Data: 80 5F 03 D0 B0 F5 00 5F 2F D1 10 E0 20 68 81 68 ... -- CPU_WriteMem(1024 bytes @ 0x20000164)  returns 0x400 (0009ms, 0748ms total)
T2570 001:207 JLINK_WriteReg(R0, 0x08001400)  returns 0x00 (0000ms, 0748ms total)
T2570 001:207 JLINK_WriteReg(R1, 0x00000400)  returns 0x00 (0000ms, 0748ms total)
T2570 001:207 JLINK_WriteReg(R2, 0x20000164)  returns 0x00 (0000ms, 0748ms total)
T2570 001:207 JLINK_WriteReg(R3, 0x00000000)  returns 0x00 (0000ms, 0748ms total)
T2570 001:207 JLINK_WriteReg(R4, 0x00000000)  returns 0x00 (0000ms, 0748ms total)
T2570 001:207 JLINK_WriteReg(R5, 0x00000000)  returns 0x00 (0000ms, 0748ms total)
T2570 001:207 JLINK_WriteReg(R6, 0x00000000)  returns 0x00 (0000ms, 0748ms total)
T2570 001:207 JLINK_WriteReg(R7, 0x00000000)  returns 0x00 (0000ms, 0748ms total)
T2570 001:207 JLINK_WriteReg(R8, 0x00000000)  returns 0x00 (0000ms, 0748ms total)
T2570 001:207 JLINK_WriteReg(R9, 0x20000160)  returns 0x00 (0000ms, 0748ms total)
T2570 001:207 JLINK_WriteReg(R10, 0x00000000)  returns 0x00 (0000ms, 0748ms total)
T2570 001:207 JLINK_WriteReg(R11, 0x00000000)  returns 0x00 (0000ms, 0748ms total)
T2570 001:207 JLINK_WriteReg(R12, 0x00000000)  returns 0x00 (0000ms, 0748ms total)
T2570 001:207 JLINK_WriteReg(R13 (SP), 0x20001000)  returns 0x00 (0000ms, 0748ms total)
T2570 001:207 JLINK_WriteReg(R14, 0x20000001)  returns 0x00 (0000ms, 0748ms total)
T2570 001:207 JLINK_WriteReg(R15 (PC), 0x200000F4)  returns 0x00 (0000ms, 0748ms total)
T2570 001:207 JLINK_WriteReg(XPSR, 0x01000000)  returns 0x00 (0000ms, 0748ms total)
T2570 001:207 JLINK_WriteReg(MSP, 0x20001000)  returns 0x00 (0000ms, 0748ms total)
T2570 001:207 JLINK_WriteReg(PSP, 0x20001000)  returns 0x00 (0000ms, 0748ms total)
T2570 001:207 JLINK_WriteReg(CFBP, 0x00000000)  returns 0x00 (0000ms, 0748ms total)
T2570 001:207 JLINK_SetBPEx(Addr = 0x20000000, Type = 0xFFFFFFF2)  returns 0x0000000A (0000ms, 0748ms total)
T2570 001:207 JLINK_Go() -- CPU_ReadMem(4 bytes @ 0xE0001000) (0002ms, 0750ms total)
T2570 001:209 JLINK_IsHalted()  returns FALSE (0000ms, 0750ms total)
T2570 001:222 JLINK_IsHalted()  returns FALSE (0000ms, 0750ms total)
T2570 001:224 JLINK_IsHalted()  returns FALSE (0000ms, 0750ms total)
T2570 001:226 JLINK_IsHalted()  returns FALSE (0000ms, 0750ms total)
T2570 001:228 JLINK_IsHalted()  returns FALSE (0000ms, 0750ms total)
T2570 001:233 JLINK_IsHalted()  returns FALSE (0000ms, 0750ms total)
T2570 001:235 JLINK_IsHalted()  returns FALSE (0000ms, 0750ms total)
T2570 001:237 JLINK_IsHalted()  returns FALSE (0000ms, 0750ms total)
T2570 001:239 JLINK_IsHalted()  returns FALSE (0001ms, 0751ms total)
T2570 001:242 JLINK_IsHalted() -- CPU_ReadMem(2 bytes @ 0x20000000)  returns TRUE (0003ms, 0753ms total)
T2570 001:245 JLINK_ReadReg(R15 (PC))  returns 0x20000000 (0001ms, 0751ms total)
T2570 001:246 JLINK_ClrBPEx(BPHandle = 0x0000000A)  returns 0x00 (0000ms, 0751ms total)
T2570 001:246 JLINK_ReadReg(R0)  returns 0x00000000 (0000ms, 0751ms total)
T2570 001:247 JLINK_WriteMem(0x20000164, 0x0400 Bytes, ...) - Data: 5F F0 22 02 80 F8 39 20 80 F8 38 10 01 68 CA 68 ... -- CPU_WriteMem(1024 bytes @ 0x20000164)  returns 0x400 (0008ms, 0759ms total)
T2570 001:255 JLINK_WriteReg(R0, 0x08001800)  returns 0x00 (0000ms, 0759ms total)
T2570 001:255 JLINK_WriteReg(R1, 0x00000400)  returns 0x00 (0000ms, 0759ms total)
T2570 001:255 JLINK_WriteReg(R2, 0x20000164)  returns 0x00 (0000ms, 0759ms total)
T2570 001:255 JLINK_WriteReg(R3, 0x00000000)  returns 0x00 (0000ms, 0759ms total)
T2570 001:255 JLINK_WriteReg(R4, 0x00000000)  returns 0x00 (0000ms, 0759ms total)
T2570 001:255 JLINK_WriteReg(R5, 0x00000000)  returns 0x00 (0000ms, 0759ms total)
T2570 001:255 JLINK_WriteReg(R6, 0x00000000)  returns 0x00 (0000ms, 0759ms total)
T2570 001:255 JLINK_WriteReg(R7, 0x00000000)  returns 0x00 (0000ms, 0759ms total)
T2570 001:255 JLINK_WriteReg(R8, 0x00000000)  returns 0x00 (0000ms, 0759ms total)
T2570 001:255 JLINK_WriteReg(R9, 0x20000160)  returns 0x00 (0000ms, 0759ms total)
T2570 001:255 JLINK_WriteReg(R10, 0x00000000)  returns 0x00 (0000ms, 0759ms total)
T2570 001:255 JLINK_WriteReg(R11, 0x00000000)  returns 0x00 (0000ms, 0759ms total)
T2570 001:255 JLINK_WriteReg(R12, 0x00000000)  returns 0x00 (0000ms, 0759ms total)
T2570 001:255 JLINK_WriteReg(R13 (SP), 0x20001000)  returns 0x00 (0001ms, 0760ms total)
T2570 001:256 JLINK_WriteReg(R14, 0x20000001)  returns 0x00 (0000ms, 0760ms total)
T2570 001:256 JLINK_WriteReg(R15 (PC), 0x200000F4)  returns 0x00 (0000ms, 0760ms total)
T2570 001:256 JLINK_WriteReg(XPSR, 0x01000000)  returns 0x00 (0000ms, 0760ms total)
T2570 001:256 JLINK_WriteReg(MSP, 0x20001000)  returns 0x00 (0000ms, 0760ms total)
T2570 001:256 JLINK_WriteReg(PSP, 0x20001000)  returns 0x00 (0000ms, 0760ms total)
T2570 001:256 JLINK_WriteReg(CFBP, 0x00000000)  returns 0x00 (0000ms, 0760ms total)
T2570 001:256 JLINK_SetBPEx(Addr = 0x20000000, Type = 0xFFFFFFF2)  returns 0x0000000B (0000ms, 0760ms total)
T2570 001:256 JLINK_Go() -- CPU_ReadMem(4 bytes @ 0xE0001000) (0002ms, 0762ms total)
T2570 001:258 JLINK_IsHalted()  returns FALSE (0001ms, 0763ms total)
T2570 001:268 JLINK_IsHalted()  returns FALSE (0001ms, 0763ms total)
T2570 001:271 JLINK_IsHalted()  returns FALSE (0000ms, 0762ms total)
T2570 001:273 JLINK_IsHalted()  returns FALSE (0000ms, 0762ms total)
T2570 001:275 JLINK_IsHalted()  returns FALSE (0000ms, 0762ms total)
T2570 001:277 JLINK_IsHalted()  returns FALSE (0000ms, 0762ms total)
T2570 001:279 JLINK_IsHalted()  returns FALSE (0000ms, 0762ms total)
T2570 001:281 JLINK_IsHalted()  returns FALSE (0000ms, 0762ms total)
T2570 001:283 JLINK_IsHalted()  returns FALSE (0000ms, 0762ms total)
T2570 001:285 JLINK_IsHalted()  returns FALSE (0001ms, 0763ms total)
T2570 001:288 JLINK_IsHalted()  returns FALSE (0000ms, 0762ms total)
T2570 001:290 JLINK_IsHalted() -- CPU_ReadMem(2 bytes @ 0x20000000)  returns TRUE (0003ms, 0765ms total)
T2570 001:293 JLINK_ReadReg(R15 (PC))  returns 0x20000000 (0000ms, 0762ms total)
T2570 001:293 JLINK_ClrBPEx(BPHandle = 0x0000000B)  returns 0x00 (0000ms, 0762ms total)
T2570 001:293 JLINK_ReadReg(R0)  returns 0x00000000 (0000ms, 0762ms total)
T2570 001:295 JLINK_WriteMem(0x20000164, 0x0400 Bytes, ...) - Data: 01 60 A0 6A 50 45 09 D1 20 68 01 68 21 F4 00 51 ... -- CPU_WriteMem(1024 bytes @ 0x20000164)  returns 0x400 (0008ms, 0770ms total)
T2570 001:303 JLINK_WriteReg(R0, 0x08001C00)  returns 0x00 (0000ms, 0770ms total)
T2570 001:303 JLINK_WriteReg(R1, 0x00000400)  returns 0x00 (0000ms, 0770ms total)
T2570 001:303 JLINK_WriteReg(R2, 0x20000164)  returns 0x00 (0000ms, 0770ms total)
T2570 001:303 JLINK_WriteReg(R3, 0x00000000)  returns 0x00 (0000ms, 0770ms total)
T2570 001:303 JLINK_WriteReg(R4, 0x00000000)  returns 0x00 (0000ms, 0770ms total)
T2570 001:303 JLINK_WriteReg(R5, 0x00000000)  returns 0x00 (0000ms, 0770ms total)
T2570 001:303 JLINK_WriteReg(R6, 0x00000000)  returns 0x00 (0000ms, 0770ms total)
T2570 001:303 JLINK_WriteReg(R7, 0x00000000)  returns 0x00 (0000ms, 0770ms total)
T2570 001:303 JLINK_WriteReg(R8, 0x00000000)  returns 0x00 (0000ms, 0770ms total)
T2570 001:303 JLINK_WriteReg(R9, 0x20000160)  returns 0x00 (0000ms, 0770ms total)
T2570 001:303 JLINK_WriteReg(R10, 0x00000000)  returns 0x00 (0000ms, 0770ms total)
T2570 001:303 JLINK_WriteReg(R11, 0x00000000)  returns 0x00 (0000ms, 0770ms total)
T2570 001:303 JLINK_WriteReg(R12, 0x00000000)  returns 0x00 (0000ms, 0770ms total)
T2570 001:303 JLINK_WriteReg(R13 (SP), 0x20001000)  returns 0x00 (0000ms, 0770ms total)
T2570 001:303 JLINK_WriteReg(R14, 0x20000001)  returns 0x00 (0000ms, 0770ms total)
T2570 001:303 JLINK_WriteReg(R15 (PC), 0x200000F4)  returns 0x00 (0000ms, 0770ms total)
T2570 001:303 JLINK_WriteReg(XPSR, 0x01000000)  returns 0x00 (0000ms, 0770ms total)
T2570 001:303 JLINK_WriteReg(MSP, 0x20001000)  returns 0x00 (0000ms, 0770ms total)
T2570 001:303 JLINK_WriteReg(PSP, 0x20001000)  returns 0x00 (0000ms, 0770ms total)
T2570 001:303 JLINK_WriteReg(CFBP, 0x00000000)  returns 0x00 (0000ms, 0770ms total)
T2570 001:303 JLINK_SetBPEx(Addr = 0x20000000, Type = 0xFFFFFFF2)  returns 0x0000000C (0000ms, 0770ms total)
T2570 001:303 JLINK_Go() -- CPU_ReadMem(4 bytes @ 0xE0001000) (0003ms, 0773ms total)
T2570 001:306 JLINK_IsHalted()  returns FALSE (0001ms, 0774ms total)
T2570 001:309 JLINK_IsHalted()  returns FALSE (0000ms, 0773ms total)
T2570 001:311 JLINK_IsHalted()  returns FALSE (0001ms, 0774ms total)
T2570 001:318 JLINK_IsHalted()  returns FALSE (0000ms, 0773ms total)
T2570 001:320 JLINK_IsHalted()  returns FALSE (0000ms, 0773ms total)
T2570 001:322 JLINK_IsHalted()  returns FALSE (0000ms, 0773ms total)
T2570 001:324 JLINK_IsHalted()  returns FALSE (0001ms, 0774ms total)
T2570 001:327 JLINK_IsHalted()  returns FALSE (0000ms, 0773ms total)
T2570 001:336 JLINK_IsHalted()  returns FALSE (0000ms, 0773ms total)
T2570 001:338 JLINK_IsHalted() -- CPU_ReadMem(2 bytes @ 0x20000000)  returns TRUE (0003ms, 0776ms total)
T2570 001:341 JLINK_ReadReg(R15 (PC))  returns 0x20000000 (0000ms, 0773ms total)
T2570 001:341 JLINK_ClrBPEx(BPHandle = 0x0000000C)  returns 0x00 (0000ms, 0773ms total)
T2570 001:341 JLINK_ReadReg(R0)  returns 0x00000000 (0001ms, 0774ms total)
T2570 001:342 JLINK_WriteMem(0x20000164, 0x0400 Bytes, ...) - Data: 0B D0 4A 1C 02 62 02 68 09 78 51 60 C1 8C 49 1E ... -- CPU_WriteMem(1024 bytes @ 0x20000164)  returns 0x400 (0009ms, 0783ms total)
T2570 001:351 JLINK_WriteReg(R0, 0x08002000)  returns 0x00 (0000ms, 0783ms total)
T2570 001:351 JLINK_WriteReg(R1, 0x00000400)  returns 0x00 (0000ms, 0783ms total)
T2570 001:351 JLINK_WriteReg(R2, 0x20000164)  returns 0x00 (0000ms, 0783ms total)
T2570 001:351 JLINK_WriteReg(R3, 0x00000000)  returns 0x00 (0000ms, 0783ms total)
T2570 001:351 JLINK_WriteReg(R4, 0x00000000)  returns 0x00 (0000ms, 0783ms total)
T2570 001:351 JLINK_WriteReg(R5, 0x00000000)  returns 0x00 (0000ms, 0783ms total)
T2570 001:351 JLINK_WriteReg(R6, 0x00000000)  returns 0x00 (0000ms, 0783ms total)
T2570 001:351 JLINK_WriteReg(R7, 0x00000000)  returns 0x00 (0000ms, 0783ms total)
T2570 001:351 JLINK_WriteReg(R8, 0x00000000)  returns 0x00 (0000ms, 0783ms total)
T2570 001:351 JLINK_WriteReg(R9, 0x20000160)  returns 0x00 (0000ms, 0783ms total)
T2570 001:351 JLINK_WriteReg(R10, 0x00000000)  returns 0x00 (0000ms, 0783ms total)
T2570 001:351 JLINK_WriteReg(R11, 0x00000000)  returns 0x00 (0000ms, 0783ms total)
T2570 001:351 JLINK_WriteReg(R12, 0x00000000)  returns 0x00 (0000ms, 0783ms total)
T2570 001:351 JLINK_WriteReg(R13 (SP), 0x20001000)  returns 0x00 (0000ms, 0783ms total)
T2570 001:351 JLINK_WriteReg(R14, 0x20000001)  returns 0x00 (0000ms, 0783ms total)
T2570 001:351 JLINK_WriteReg(R15 (PC), 0x200000F4)  returns 0x00 (0000ms, 0783ms total)
T2570 001:351 JLINK_WriteReg(XPSR, 0x01000000)  returns 0x00 (0000ms, 0783ms total)
T2570 001:351 JLINK_WriteReg(MSP, 0x20001000)  returns 0x00 (0000ms, 0783ms total)
T2570 001:351 JLINK_WriteReg(PSP, 0x20001000)  returns 0x00 (0000ms, 0783ms total)
T2570 001:351 JLINK_WriteReg(CFBP, 0x00000000)  returns 0x00 (0000ms, 0783ms total)
T2570 001:351 JLINK_SetBPEx(Addr = 0x20000000, Type = 0xFFFFFFF2)  returns 0x0000000D (0000ms, 0783ms total)
T2570 001:351 JLINK_Go() -- CPU_ReadMem(4 bytes @ 0xE0001000) (0002ms, 0785ms total)
T2570 001:353 JLINK_IsHalted()  returns FALSE (0001ms, 0786ms total)
T2570 001:368 JLINK_IsHalted()  returns FALSE (0000ms, 0785ms total)
T2570 001:372 JLINK_IsHalted()  returns FALSE (0000ms, 0785ms total)
T2570 001:374 JLINK_IsHalted()  returns FALSE (0000ms, 0785ms total)
T2570 001:376 JLINK_IsHalted()  returns FALSE (0001ms, 0786ms total)
T2570 001:379 JLINK_IsHalted()  returns FALSE (0000ms, 0785ms total)
T2570 001:381 JLINK_IsHalted()  returns FALSE (0001ms, 0786ms total)
T2570 001:384 JLINK_IsHalted()  returns FALSE (0000ms, 0785ms total)
T2570 001:386 JLINK_IsHalted() -- CPU_ReadMem(2 bytes @ 0x20000000)  returns TRUE (0003ms, 0788ms total)
T2570 001:389 JLINK_ReadReg(R15 (PC))  returns 0x20000000 (0000ms, 0785ms total)
T2570 001:389 JLINK_ClrBPEx(BPHandle = 0x0000000D)  returns 0x00 (0000ms, 0785ms total)
T2570 001:389 JLINK_ReadReg(R0)  returns 0x00000000 (0000ms, 0785ms total)
T2570 001:390 JLINK_WriteMem(0x20000164, 0x0400 Bytes, ...) - Data: 5F EA 00 09 2B D0 B9 F1 80 0F 04 D2 01 46 68 A0 ... -- CPU_WriteMem(1024 bytes @ 0x20000164)  returns 0x400 (0009ms, 0794ms total)
T2570 001:399 JLINK_WriteReg(R0, 0x08002400)  returns 0x00 (0000ms, 0794ms total)
T2570 001:399 JLINK_WriteReg(R1, 0x00000400)  returns 0x00 (0000ms, 0794ms total)
T2570 001:399 JLINK_WriteReg(R2, 0x20000164)  returns 0x00 (0000ms, 0794ms total)
T2570 001:399 JLINK_WriteReg(R3, 0x00000000)  returns 0x00 (0000ms, 0794ms total)
T2570 001:399 JLINK_WriteReg(R4, 0x00000000)  returns 0x00 (0000ms, 0794ms total)
T2570 001:399 JLINK_WriteReg(R5, 0x00000000)  returns 0x00 (0000ms, 0794ms total)
T2570 001:399 JLINK_WriteReg(R6, 0x00000000)  returns 0x00 (0000ms, 0794ms total)
T2570 001:399 JLINK_WriteReg(R7, 0x00000000)  returns 0x00 (0000ms, 0794ms total)
T2570 001:399 JLINK_WriteReg(R8, 0x00000000)  returns 0x00 (0000ms, 0794ms total)
T2570 001:399 JLINK_WriteReg(R9, 0x20000160)  returns 0x00 (0000ms, 0794ms total)
T2570 001:399 JLINK_WriteReg(R10, 0x00000000)  returns 0x00 (0000ms, 0794ms total)
T2570 001:399 JLINK_WriteReg(R11, 0x00000000)  returns 0x00 (0000ms, 0794ms total)
T2570 001:399 JLINK_WriteReg(R12, 0x00000000)  returns 0x00 (0000ms, 0794ms total)
T2570 001:399 JLINK_WriteReg(R13 (SP), 0x20001000)  returns 0x00 (0000ms, 0794ms total)
T2570 001:399 JLINK_WriteReg(R14, 0x20000001)  returns 0x00 (0000ms, 0794ms total)
T2570 001:399 JLINK_WriteReg(R15 (PC), 0x200000F4)  returns 0x00 (0000ms, 0794ms total)
T2570 001:399 JLINK_WriteReg(XPSR, 0x01000000)  returns 0x00 (0000ms, 0794ms total)
T2570 001:399 JLINK_WriteReg(MSP, 0x20001000)  returns 0x00 (0000ms, 0794ms total)
T2570 001:399 JLINK_WriteReg(PSP, 0x20001000)  returns 0x00 (0000ms, 0794ms total)
T2570 001:399 JLINK_WriteReg(CFBP, 0x00000000)  returns 0x00 (0000ms, 0794ms total)
T2570 001:399 JLINK_SetBPEx(Addr = 0x20000000, Type = 0xFFFFFFF2)  returns 0x0000000E (0000ms, 0794ms total)
T2570 001:399 JLINK_Go() -- CPU_ReadMem(4 bytes @ 0xE0001000) (0002ms, 0796ms total)
T2570 001:401 JLINK_IsHalted()  returns FALSE (0001ms, 0797ms total)
T2570 001:403 JLINK_IsHalted()  returns FALSE (0000ms, 0796ms total)
T2570 001:406 JLINK_IsHalted()  returns FALSE (0000ms, 0796ms total)
T2570 001:408 JLINK_IsHalted()  returns FALSE (0000ms, 0796ms total)
T2570 001:410 JLINK_IsHalted()  returns FALSE (0000ms, 0796ms total)
T2570 001:411 JLINK_IsHalted()  returns FALSE (0000ms, 0796ms total)
T2570 001:414 JLINK_IsHalted()  returns FALSE (0000ms, 0796ms total)
T2570 001:416 JLINK_IsHalted()  returns FALSE (0000ms, 0796ms total)
T2570 001:418 JLINK_IsHalted()  returns FALSE (0000ms, 0796ms total)
T2570 001:420 JLINK_IsHalted()  returns FALSE (0000ms, 0796ms total)
T2570 001:422 JLINK_IsHalted()  returns FALSE (0000ms, 0796ms total)
T2570 001:424 JLINK_IsHalted()  returns FALSE (0000ms, 0796ms total)
T2570 001:426 JLINK_IsHalted()  returns FALSE (0001ms, 0797ms total)
T2570 001:429 JLINK_IsHalted()  returns FALSE (0000ms, 0796ms total)
T2570 001:431 JLINK_IsHalted()  returns FALSE (0000ms, 0796ms total)
T2570 001:441 JLINK_IsHalted() -- CPU_ReadMem(2 bytes @ 0x20000000)  returns TRUE (0004ms, 0800ms total)
T2570 001:445 JLINK_ReadReg(R15 (PC))  returns 0x20000000 (0000ms, 0796ms total)
T2570 001:445 JLINK_ClrBPEx(BPHandle = 0x0000000E)  returns 0x00 (0000ms, 0796ms total)
T2570 001:445 JLINK_ReadReg(R0)  returns 0x00000000 (0000ms, 0796ms total)
T2570 001:446 JLINK_WriteMem(0x20000164, 0x0400 Bytes, ...) - Data: 80 F8 04 80 20 68 01 F0 5E FC 08 B1 01 20 DD E7 ... -- CPU_WriteMem(1024 bytes @ 0x20000164)  returns 0x400 (0008ms, 0804ms total)
T2570 001:454 JLINK_WriteReg(R0, 0x08002800)  returns 0x00 (0000ms, 0804ms total)
T2570 001:454 JLINK_WriteReg(R1, 0x00000400)  returns 0x00 (0000ms, 0804ms total)
T2570 001:454 JLINK_WriteReg(R2, 0x20000164)  returns 0x00 (0000ms, 0804ms total)
T2570 001:454 JLINK_WriteReg(R3, 0x00000000)  returns 0x00 (0000ms, 0804ms total)
T2570 001:454 JLINK_WriteReg(R4, 0x00000000)  returns 0x00 (0000ms, 0804ms total)
T2570 001:454 JLINK_WriteReg(R5, 0x00000000)  returns 0x00 (0000ms, 0804ms total)
T2570 001:454 JLINK_WriteReg(R6, 0x00000000)  returns 0x00 (0000ms, 0804ms total)
T2570 001:454 JLINK_WriteReg(R7, 0x00000000)  returns 0x00 (0000ms, 0804ms total)
T2570 001:454 JLINK_WriteReg(R8, 0x00000000)  returns 0x00 (0000ms, 0804ms total)
T2570 001:454 JLINK_WriteReg(R9, 0x20000160)  returns 0x00 (0000ms, 0804ms total)
T2570 001:454 JLINK_WriteReg(R10, 0x00000000)  returns 0x00 (0000ms, 0804ms total)
T2570 001:454 JLINK_WriteReg(R11, 0x00000000)  returns 0x00 (0000ms, 0804ms total)
